
T5DF0 000:564 SEGGER J-Link V4.86b Log File (0000ms, 0260ms total)
T5DF0 000:564 DLL Compiled: Jun 27 2014 20:11:00 (0000ms, 0260ms total)
T5DF0 000:564 Logging started @ 2021-10-19 16:49 (0001ms, 0261ms total)
T5DF0 000:565 JLINK_SetWarnOutHandler(...) (0000ms, 0261ms total)
T5DF0 000:565 JLINK_OpenEx(...)
Firmware: J-Link ARM V8 compiled Nov 28 2014 13:44:46
Hardware: V8.00
S/N: 304423265
Feature(s): RDI,FlashDL,FlashBP,JFlash,GDBFULL  returns O.K. (0261ms, 0522ms total)
T5DF0 000:826 JLINK_SetErrorOutHandler(...) (0000ms, 0522ms total)
T5DF0 000:826 JLINK_ExecCommand("ProjectFile = "D:\embedded system\embedded-system\TCP客户端收发数据实验（裸机）\Project\RVMDK\JLinkSettings.ini"", ...)  returns 0x00 (0000ms, 0522ms total)
T5DF0 000:826 JLINK_ExecCommand("Device = STM32F107VC", ...)Device "STM32F107VC" selected (256 KB flash, 64 KB RAM).  returns 0x00 (0000ms, 0522ms total)
T5DF0 000:826 JLINK_ExecCommand("DisableConnectionTimeout", ...)  returns 0x01 (0000ms, 0522ms total)
T5DF0 000:826 JLINK_GetHardwareVersion()  returns 0x13880 (0000ms, 0522ms total)
T5DF0 000:826 JLINK_GetDLLVersion()  returns 48602 (0000ms, 0522ms total)
T5DF0 000:826 JLINK_GetFirmwareString(...) (0000ms, 0522ms total)
T5DF0 000:826 JLINK_GetDLLVersion()  returns 48602 (0000ms, 0522ms total)
T5DF0 000:826 JLINK_GetCompileDateTime() (0000ms, 0522ms total)
T5DF0 000:826 JLINK_GetFirmwareString(...) (0000ms, 0522ms total)
T5DF0 000:826 JLINK_GetHardwareVersion()  returns 0x13880 (0000ms, 0522ms total)
T5DF0 000:827 JLINK_TIF_Select(JLINKARM_TIF_JTAG)  returns 0x00 (0001ms, 0523ms total)
T5DF0 000:828 JLINK_SetSpeed(5000) (0001ms, 0524ms total)
T5DF0 000:829 JLINK_GetIdData(...) >0x2F8 JTAG>TotalIRLen = 9, IRPrint = 0x0011 >0x30 JTAG> >0x210 JTAG> >0x40 JTAG> >0x40 JTAG> >0x40 JTAG> >0x30 JTAG> >0x40 JTAG> >0x40 JTAG> >0x40 JTAG> >0x40 JTAG> >0x40 JTAG> >0x40 JTAG> >0x40 JTAG> >0x40 JTAG> >0x2F8 JTAG>TotalIRLen = 9, IRPrint = 0x0011 >0x30 JTAG> >0x210 JTAG> >0x70 JTAG> >0x40 JTAG> >0x40 JTAG> >0x40 JTAG> >0x50 JTAG> >0x80 JTAG> >0x40 JTAG> >0x30 JTAG> >0x40 JTAG> >0x40 JTAG> >0x30 JTAG> >0x40 JTAG> >0x50 JTAG>
Found Cortex-M3 r1p1, Little endian. -- CPU_WriteMem(4 bytes @ 0xE0002000) -- CPU_ReadMem(4 bytes @ 0xE000EDF0) -- CPU_ReadMem(4 bytes @ 0xE0002000)FPUnit: 6 code (BP) slots and 2 literal slots -- CPU_ReadMem(4 bytes @ 0xE000EDFC) -- CPU_ReadMem(4 bytes @ 0xE0001000) -- CPU_WriteMem(4 bytes @ 0xE0001000) -- CPU_ReadMem(4 bytes @ 0xE00FF010)TPIU fitted. -- CPU_ReadMem(4 bytes @ 0xE00FF014)ETM fitted. -- CPU_ReadMem(4 bytes @ 0xE00FF018) ScanLen=9 NumDevices=2 aId[0]=0x3BA00477 aIrRead[0]=0 aScanLen[0]=0
 aScanRead[0]=0 (0027ms, 0551ms total)
T5DF0 000:856 JLINK_JTAG_GetDeviceID(DeviceIndex = 0)  returns 0x3BA00477 (0000ms, 0551ms total)
T5DF0 000:856 JLINK_JTAG_GetDeviceInfo(DeviceIndex = 0)  returns 0x00 (0000ms, 0551ms total)
T5DF0 000:856 JLINK_JTAG_GetDeviceID(DeviceIndex = 1)  returns 0x6418041 (0000ms, 0551ms total)
T5DF0 000:856 JLINK_JTAG_GetDeviceInfo(DeviceIndex = 1)  returns 0x00 (0000ms, 0551ms total)
T5DF0 000:856 JLINK_GetDLLVersion()  returns 48602 (0000ms, 0551ms total)
T5DF0 000:856 JLINK_CORE_GetFound()  returns 0x30000FF (0000ms, 0551ms total)
T5DF0 000:856 JLINK_GetDebugInfo(0x100) -- Value=0xE00FF003  returns 0x00 (0000ms, 0551ms total)
T5DF0 000:856 JLINK_GetDebugInfo(0x101)  returns 0xFFFFFFFF (0000ms, 0551ms total)
T5DF0 000:856 JLINK_ReadMem (0xE0041FF0, 0x0010 Bytes, ...) -- CPU is running -- CPU_ReadMem(16 bytes @ 0xE0041FF0) - Data: 0D 00 00 00 90 00 00 00 05 00 00 00 B1 00 00 00  returns 0x00 (0000ms, 0551ms total)
T5DF0 000:856 JLINK_GetDebugInfo(0x102)  returns 0xFFFFFFFF (0000ms, 0551ms total)
T5DF0 000:856 JLINK_GetDebugInfo(0x103)  returns 0xFFFFFFFF (0000ms, 0551ms total)
T5DF0 000:856 JLINK_ReadMem (0xE0040FF0, 0x0010 Bytes, ...) -- CPU is running -- CPU_ReadMem(16 bytes @ 0xE0040FF0) - Data: 0D 00 00 00 90 00 00 00 05 00 00 00 B1 00 00 00  returns 0x00 (0001ms, 0552ms total)
T5DF0 000:857 JLINK_GetDebugInfo(0x104)  returns 0xFFFFFFFF (0000ms, 0552ms total)
T5DF0 000:857 JLINK_GetDebugInfo(0x105)  returns 0xFFFFFFFF (0000ms, 0552ms total)
T5DF0 000:857 JLINK_GetDebugInfo(0x106)  returns 0xFFFFFFFF (0000ms, 0552ms total)
T5DF0 000:857 JLINK_GetDebugInfo(0x107)  returns 0xFFFFFFFF (0000ms, 0552ms total)
T5DF0 000:857 JLINK_GetDebugInfo(0x10C)  returns 0xFFFFFFFF (0000ms, 0552ms total)
T5DF0 000:857 JLINK_ReadMemU32(0xE000ED00, 0x0001 Items, ...) -- CPU is running -- CPU_ReadMem(4 bytes @ 0xE000ED00) - Data: 31 C2 1F 41  returns 0x01 (0001ms, 0553ms total)
T5DF0 000:858 JLINK_SetResetType(JLINKARM_RESET_TYPE_NORMAL)  returns JLINKARM_RESET_TYPE_NORMAL (0000ms, 0553ms total)
T5DF0 000:858 JLINK_Reset() -- CPU is running -- CPU_WriteMem(4 bytes @ 0xE000EDF0) -- CPU is running -- CPU_WriteMem(4 bytes @ 0xE000EDFC) -- CPU is running -- CPU_WriteMem(4 bytes @ 0xE000ED0C) -- CPU is running -- CPU_ReadMem(4 bytes @ 0xE000EDF0) -- CPU is running -- CPU_ReadMem(4 bytes @ 0xE000EDF0) -- CPU is running -- CPU_WriteMem(4 bytes @ 0xE000EDF0) -- CPU is running -- CPU_WriteMem(4 bytes @ 0xE000EDFC) -- CPU is running -- CPU_ReadMem(4 bytes @ 0xE000EDF0) >0x80 JTAG> >0x40 JTAG> >0x30 JTAG>
 >0x40 JTAG> >0x50 JTAG> >0x40 JTAG> -- CPU_WriteMem(4 bytes @ 0xE000EDFC) -- CPU_WriteMem(4 bytes @ 0xE0001028) -- CPU_WriteMem(4 bytes @ 0xE0001038) -- CPU_WriteMem(4 bytes @ 0xE0001048) -- CPU_WriteMem(4 bytes @ 0xE0001058) -- CPU_WriteMem(4 bytes @ 0xE0002000) -- CPU_ReadMem(4 bytes @ 0xE000EDFC) -- CPU_ReadMem(4 bytes @ 0xE0001000) (0027ms, 0580ms total)
T5DF0 000:885 JLINK_ReadReg(R15 (PC))  returns 0x080001F4 (0000ms, 0580ms total)
T5DF0 000:885 JLINK_ReadReg(XPSR)  returns 0x01000000 (0000ms, 0580ms total)
T5DF0 000:885 JLINK_Halt()  returns 0x00 (0000ms, 0580ms total)
T5DF0 000:885 JLINK_IsHalted()  returns TRUE (0000ms, 0580ms total)
T5DF0 000:885 JLINK_ReadMemU32(0xE000EDF0, 0x0001 Items, ...) -- CPU_ReadMem(4 bytes @ 0xE000EDF0) - Data: 03 00 03 00  returns 0x01 (0000ms, 0580ms total)
T5DF0 000:885 JLINK_WriteU32(0xE000EDF0, 0xA05F0003) -- CPU_WriteMem(4 bytes @ 0xE000EDF0)  returns 0x00 (0001ms, 0581ms total)
T5DF0 000:886 JLINK_WriteU32(0xE000EDFC, 0x01000000) -- CPU_WriteMem(4 bytes @ 0xE000EDFC)  returns 0x00 (0000ms, 0581ms total)
T5DF0 000:887 JLINK_GetHWStatus(...)  returns 0x00 (0000ms, 0581ms total)
T5DF0 000:887 JLINK_GetNumBPUnits(Type = 0xFFFFFF00)  returns 0x06 (0000ms, 0581ms total)
T5DF0 000:887 JLINK_GetNumBPUnits(Type = 0xF0)  returns 0x2000 (0000ms, 0581ms total)
T5DF0 000:887 JLINK_GetNumWPUnits()  returns 0x04 (0000ms, 0581ms total)
T5DF0 000:888 JLINK_GetSpeed()  returns 0x12C0 (0000ms, 0581ms total)
T5DF0 000:888 JLINK_ReadMemU32(0xE000E004, 0x0001 Items, ...) -- CPU_ReadMem(4 bytes @ 0xE000E004) - Data: 02 00 00 00  returns 0x01 (0000ms, 0581ms total)
T5DF0 000:888 JLINK_ReadMemU32(0xE000E004, 0x0001 Items, ...) -- CPU_ReadMem(4 bytes @ 0xE000E004) - Data: 02 00 00 00  returns 0x01 (0001ms, 0582ms total)
T5DF0 000:889 JLINK_WriteMem(0xE0001000, 0x001C Bytes, ...) - Data: 01 00 00 00 00 00 00 00 00 00 00 00 00 00 00 00 ... -- CPU_WriteMem(28 bytes @ 0xE0001000)  returns 0x1C (0001ms, 0583ms total)
T5DF0 000:890 JLINK_ReadMem (0xE0001000, 0x001C Bytes, ...) -- CPU_ReadMem(28 bytes @ 0xE0001000) - Data: 01 00 00 40 00 00 00 00 00 00 00 00 00 00 00 00 ...  returns 0x00 (0000ms, 0583ms total)
T5DF0 000:890 JLINK_ReadReg(R15 (PC))  returns 0x080001F4 (0000ms, 0583ms total)
T5DF0 000:890 JLINK_ReadReg(XPSR)  returns 0x01000000 (0000ms, 0583ms total)
T5DF0 000:961 JLINK_SetResetType(JLINKARM_RESET_TYPE_NORMAL)  returns JLINKARM_RESET_TYPE_NORMAL (0000ms, 0583ms total)
T5DF0 000:961 JLINK_Reset() -- CPU_WriteMem(4 bytes @ 0xE000EDF0) -- CPU_WriteMem(4 bytes @ 0xE000EDFC) -- CPU_WriteMem(4 bytes @ 0xE000ED0C) -- CPU_ReadMem(4 bytes @ 0xE000EDF0) -- CPU_ReadMem(4 bytes @ 0xE000EDF0) -- CPU_WriteMem(4 bytes @ 0xE000EDF0) -- CPU_WriteMem(4 bytes @ 0xE000EDFC) -- CPU is running -- CPU_ReadMem(4 bytes @ 0xE000EDF0) >0x80 JTAG> >0x40 JTAG> >0x30 JTAG> >0x40 JTAG> >0x50 JTAG> >0x40 JTAG> -- CPU_WriteMem(4 bytes @ 0xE000EDFC) -- CPU_WriteMem(4 bytes @ 0xE0001028)
 -- CPU_WriteMem(4 bytes @ 0xE0001038) -- CPU_WriteMem(4 bytes @ 0xE0001048) -- CPU_WriteMem(4 bytes @ 0xE0001058) -- CPU_WriteMem(4 bytes @ 0xE0002000) -- CPU_ReadMem(4 bytes @ 0xE000EDFC) -- CPU_ReadMem(4 bytes @ 0xE0001000) (0028ms, 0611ms total)
T5DF0 000:989 JLINK_ReadReg(R15 (PC))  returns 0x080001F4 (0000ms, 0611ms total)
T5DF0 000:990 JLINK_ReadReg(XPSR)  returns 0x01000000 (0000ms, 0612ms total)
T5DF0 000:990 JLINK_ReadMem (0x080001F4, 0x003C Bytes, ...) -- CPU_ReadMem(128 bytes @ 0x080001C0) -- Updating C cache (128 bytes @ 0x080001C0) -- Read from C cache (60 bytes @ 0x080001F4) - Data: 08 48 00 47 FE E7 FE E7 FE E7 FE E7 FE E7 FE E7 ...  returns 0x00 (0001ms, 0613ms total)
T5DF0 001:725 JLINK_ReadMem (0x20000024, 0x0004 Bytes, ...) -- CPU_ReadMem(64 bytes @ 0x20000000) -- Updating C cache (64 bytes @ 0x20000000) -- Read from C cache (4 bytes @ 0x20000024) - Data: 00 00 00 00  returns 0x00 (0002ms, 0615ms total)
T5D8C 001:742 JLINK_SetBPEx(Addr = 0x08003644, Type = 0xFFFFFFF2)  returns 0x00000001 (0000ms, 0615ms total)
T5D8C 001:742 JLINK_Go() -- CPU_WriteMem(4 bytes @ 0xE0002008) -- CPU_WriteMem(4 bytes @ 0xE000200C) -- CPU_WriteMem(4 bytes @ 0xE0002010) -- CPU_WriteMem(4 bytes @ 0xE0002014) -- CPU_WriteMem(4 bytes @ 0xE0002018) -- CPU_WriteMem(4 bytes @ 0xE000201C) -- CPU_WriteMem(4 bytes @ 0xE0001004) (0004ms, 0619ms total)
T5D8C 001:847 JLINK_IsHalted()  returns TRUE (0003ms, 0622ms total)
T5D8C 001:850 JLINK_Halt()  returns 0x00 (0000ms, 0619ms total)
T5D8C 001:850 JLINK_IsHalted()  returns TRUE (0000ms, 0619ms total)
T5D8C 001:850 JLINK_IsHalted()  returns TRUE (0000ms, 0619ms total)
T5D8C 001:850 JLINK_IsHalted()  returns TRUE (0000ms, 0619ms total)
T5D8C 001:850 JLINK_ReadReg(R15 (PC))  returns 0x08003644 (0000ms, 0619ms total)
T5D8C 001:850 JLINK_ReadReg(XPSR)  returns 0x21000000 (0000ms, 0619ms total)
T5D8C 001:850 JLINK_ClrBPEx(BPHandle = 0x00000001)  returns 0x00 (0000ms, 0619ms total)
T5D8C 001:850 JLINK_ReadMemU32(0xE000ED30, 0x0001 Items, ...) -- CPU_ReadMem(4 bytes @ 0xE000ED30) - Data: 03 00 00 00  returns 0x01 (0000ms, 0619ms total)
T5D8C 001:850 JLINK_ReadMemU32(0xE0001028, 0x0001 Items, ...) -- CPU_ReadMem(4 bytes @ 0xE0001028) - Data: 00 00 00 00  returns 0x01 (0001ms, 0620ms total)
T5D8C 001:851 JLINK_ReadMemU32(0xE0001038, 0x0001 Items, ...) -- CPU_ReadMem(4 bytes @ 0xE0001038) - Data: 00 02 00 00  returns 0x01 (0000ms, 0620ms total)
T5D8C 001:851 JLINK_ReadMemU32(0xE0001048, 0x0001 Items, ...) -- CPU_ReadMem(4 bytes @ 0xE0001048) - Data: 00 00 00 00  returns 0x01 (0001ms, 0621ms total)
T5D8C 001:852 JLINK_ReadMemU32(0xE0001058, 0x0001 Items, ...) -- CPU_ReadMem(4 bytes @ 0xE0001058) - Data: 00 00 00 00  returns 0x01 (0000ms, 0621ms total)
T5D8C 001:853 JLINK_ReadReg(R0)  returns 0x200092E8 (0000ms, 0621ms total)
T5D8C 001:853 JLINK_ReadReg(R1)  returns 0x200094E8 (0000ms, 0621ms total)
T5D8C 001:853 JLINK_ReadReg(R2)  returns 0x200094E8 (0000ms, 0621ms total)
T5D8C 001:853 JLINK_ReadReg(R3)  returns 0x200094E8 (0000ms, 0621ms total)
T5D8C 001:853 JLINK_ReadReg(R4)  returns 0x00000000 (0000ms, 0621ms total)
T5D8C 001:853 JLINK_ReadReg(R5)  returns 0x20009284 (0000ms, 0621ms total)
T5D8C 001:853 JLINK_ReadReg(R6)  returns 0x00000000 (0000ms, 0621ms total)
T5D8C 001:853 JLINK_ReadReg(R7)  returns 0x00000000 (0000ms, 0621ms total)
T5D8C 001:853 JLINK_ReadReg(R8)  returns 0x00000000 (0000ms, 0621ms total)
T5D8C 001:853 JLINK_ReadReg(R9)  returns 0x20000160 (0000ms, 0621ms total)
T5D8C 001:853 JLINK_ReadReg(R10)  returns 0x08005EE0 (0000ms, 0621ms total)
T5D8C 001:853 JLINK_ReadReg(R11)  returns 0x00000000 (0000ms, 0621ms total)
T5D8C 001:853 JLINK_ReadReg(R12)  returns 0x200092C4 (0000ms, 0621ms total)
T5D8C 001:853 JLINK_ReadReg(R13 (SP))  returns 0x200098E8 (0000ms, 0621ms total)
T5D8C 001:853 JLINK_ReadReg(R14)  returns 0x080001E5 (0000ms, 0621ms total)
T5D8C 001:853 JLINK_ReadReg(R15 (PC))  returns 0x08003644 (0000ms, 0621ms total)
T5D8C 001:853 JLINK_ReadReg(XPSR)  returns 0x21000000 (0000ms, 0621ms total)
T5D8C 001:853 JLINK_ReadReg(MSP)  returns 0x200098E8 (0000ms, 0621ms total)
T5D8C 001:853 JLINK_ReadReg(PSP)  returns 0x20000800 (0000ms, 0621ms total)
T5D8C 001:853 JLINK_ReadReg(CFBP)  returns 0x00000000 (0000ms, 0621ms total)
T5DF0 001:853 JLINK_ReadMemU32(0xE0001004, 0x0001 Items, ...) -- CPU_ReadMem(4 bytes @ 0xE0001004) - Data: 55 4D 00 00  returns 0x01 (0000ms, 0621ms total)
T5DF0 001:856 JLINK_ReadMem (0x20000024, 0x0004 Bytes, ...) -- CPU_ReadMem(64 bytes @ 0x20000000) -- Updating C cache (64 bytes @ 0x20000000) -- Read from C cache (4 bytes @ 0x20000024) - Data: 00 00 00 00  returns 0x00 (0001ms, 0622ms total)
T5DF0 001:858 JLINK_ReadMem (0x08003644, 0x003C Bytes, ...) -- CPU_ReadMem(64 bytes @ 0x08003640) -- Updating C cache (64 bytes @ 0x08003640) -- Read from C cache (60 bytes @ 0x08003644) - Data: 88 B0 14 22 0F A1 02 A8 FC F7 B7 FE FD F7 F0 FE ...  returns 0x00 (0001ms, 0623ms total)
T5DF0 001:868 JLINK_ReadMem (0x0800141E, 0x0002 Bytes, ...) -- CPU_ReadMem(64 bytes @ 0x08001400) -- Updating C cache (64 bytes @ 0x08001400) -- Read from C cache (2 bytes @ 0x0800141E) - Data: 04 4C  returns 0x00 (0002ms, 0625ms total)
T5DF0 001:870 JLINK_ReadMem (0x08001420, 0x003C Bytes, ...) -- CPU_ReadMem(64 bytes @ 0x08001440) -- Updating C cache (64 bytes @ 0x08001440) -- Read from C cache (60 bytes @ 0x08001420) - Data: 20 68 FF F7 FF F8 20 68 BD E8 10 40 FF F7 A6 BD ...  returns 0x00 (0001ms, 0626ms total)
T5D8C 027:599 JLINK_Step() -- Read from C cache (2 bytes @ 0x08003644) -- Simulated  returns 0x00 (0001ms, 0627ms total)
T5D8C 027:600 JLINK_ReadReg(R15 (PC))  returns 0x08003646 (0000ms, 0627ms total)
T5D8C 027:600 JLINK_ReadReg(XPSR)  returns 0x21000000 (0000ms, 0627ms total)
T5D8C 027:600 JLINK_ReadReg(R0)  returns 0x200092E8 (0000ms, 0627ms total)
T5D8C 027:600 JLINK_ReadReg(R1)  returns 0x200094E8 (0000ms, 0627ms total)
T5D8C 027:600 JLINK_ReadReg(R2)  returns 0x200094E8 (0000ms, 0627ms total)
T5D8C 027:600 JLINK_ReadReg(R3)  returns 0x200094E8 (0000ms, 0627ms total)
T5D8C 027:600 JLINK_ReadReg(R4)  returns 0x00000000 (0000ms, 0627ms total)
T5D8C 027:600 JLINK_ReadReg(R5)  returns 0x20009284 (0000ms, 0627ms total)
T5D8C 027:600 JLINK_ReadReg(R6)  returns 0x00000000 (0000ms, 0627ms total)
T5D8C 027:600 JLINK_ReadReg(R7)  returns 0x00000000 (0000ms, 0627ms total)
T5D8C 027:600 JLINK_ReadReg(R8)  returns 0x00000000 (0000ms, 0627ms total)
T5D8C 027:600 JLINK_ReadReg(R9)  returns 0x20000160 (0000ms, 0627ms total)
T5D8C 027:600 JLINK_ReadReg(R10)  returns 0x08005EE0 (0000ms, 0627ms total)
T5D8C 027:600 JLINK_ReadReg(R11)  returns 0x00000000 (0000ms, 0627ms total)
T5D8C 027:600 JLINK_ReadReg(R12)  returns 0x200092C4 (0000ms, 0627ms total)
T5D8C 027:600 JLINK_ReadReg(R13 (SP))  returns 0x200098C8 (0000ms, 0627ms total)
T5D8C 027:600 JLINK_ReadReg(R14)  returns 0x080001E5 (0000ms, 0627ms total)
T5D8C 027:600 JLINK_ReadReg(R15 (PC))  returns 0x08003646 (0000ms, 0627ms total)
T5D8C 027:600 JLINK_ReadReg(XPSR)  returns 0x21000000 (0000ms, 0627ms total)
T5D8C 027:600 JLINK_ReadReg(MSP)  returns 0x200098C8 (0000ms, 0627ms total)
T5D8C 027:600 JLINK_ReadReg(PSP)  returns 0x20000800 (0000ms, 0627ms total)
T5D8C 027:600 JLINK_ReadReg(CFBP)  returns 0x00000000 (0000ms, 0627ms total)
T5DF0 027:601 JLINK_ReadMemU32(0xE0001004, 0x0001 Items, ...) - Data: 55 4D 00 00  returns 0x01 (0000ms, 0627ms total)
T5DF0 027:602 JLINK_ReadMem (0x20000024, 0x0004 Bytes, ...) -- Read from C cache (4 bytes @ 0x20000024) - Data: 00 00 00 00  returns 0x00 (0000ms, 0627ms total)
T5DF0 027:603 JLINK_ReadMem (0x08003646, 0x0002 Bytes, ...) -- Read from C cache (2 bytes @ 0x08003646) - Data: 14 22  returns 0x00 (0000ms, 0627ms total)
T5DF0 027:603 JLINK_ReadMem (0x08003648, 0x003C Bytes, ...) -- CPU_ReadMem(64 bytes @ 0x08003680) -- Updating C cache (64 bytes @ 0x08003680) -- Read from C cache (60 bytes @ 0x08003648) - Data: 0F A1 02 A8 FC F7 B7 FE FD F7 F0 FE FD F7 60 FC ...  returns 0x00 (0001ms, 0628ms total)
T5D8C 028:541 JLINK_Step() -- Read from C cache (2 bytes @ 0x08003646) -- Simulated  returns 0x00 (0001ms, 0629ms total)
T5D8C 028:542 JLINK_ReadReg(R15 (PC))  returns 0x08003648 (0000ms, 0629ms total)
T5D8C 028:542 JLINK_ReadReg(XPSR)  returns 0x21000000 (0000ms, 0629ms total)
T5D8C 028:542 JLINK_ReadReg(R0)  returns 0x200092E8 (0000ms, 0629ms total)
T5D8C 028:542 JLINK_ReadReg(R1)  returns 0x200094E8 (0000ms, 0629ms total)
T5D8C 028:542 JLINK_ReadReg(R2)  returns 0x00000014 (0000ms, 0629ms total)
T5D8C 028:542 JLINK_ReadReg(R3)  returns 0x200094E8 (0000ms, 0629ms total)
T5D8C 028:542 JLINK_ReadReg(R4)  returns 0x00000000 (0000ms, 0629ms total)
T5D8C 028:542 JLINK_ReadReg(R5)  returns 0x20009284 (0000ms, 0629ms total)
T5D8C 028:542 JLINK_ReadReg(R6)  returns 0x00000000 (0000ms, 0629ms total)
T5D8C 028:542 JLINK_ReadReg(R7)  returns 0x00000000 (0000ms, 0629ms total)
T5D8C 028:542 JLINK_ReadReg(R8)  returns 0x00000000 (0000ms, 0629ms total)
T5D8C 028:542 JLINK_ReadReg(R9)  returns 0x20000160 (0000ms, 0629ms total)
T5D8C 028:542 JLINK_ReadReg(R10)  returns 0x08005EE0 (0000ms, 0629ms total)
T5D8C 028:542 JLINK_ReadReg(R11)  returns 0x00000000 (0000ms, 0629ms total)
T5D8C 028:542 JLINK_ReadReg(R12)  returns 0x200092C4 (0000ms, 0629ms total)
T5D8C 028:542 JLINK_ReadReg(R13 (SP))  returns 0x200098C8 (0000ms, 0629ms total)
T5D8C 028:542 JLINK_ReadReg(R14)  returns 0x080001E5 (0000ms, 0629ms total)
T5D8C 028:542 JLINK_ReadReg(R15 (PC))  returns 0x08003648 (0000ms, 0629ms total)
T5D8C 028:542 JLINK_ReadReg(XPSR)  returns 0x21000000 (0000ms, 0629ms total)
T5D8C 028:542 JLINK_ReadReg(MSP)  returns 0x200098C8 (0000ms, 0629ms total)
T5D8C 028:542 JLINK_ReadReg(PSP)  returns 0x20000800 (0000ms, 0629ms total)
T5D8C 028:542 JLINK_ReadReg(CFBP)  returns 0x00000000 (0000ms, 0629ms total)
T5DF0 028:542 JLINK_ReadMemU32(0xE0001004, 0x0001 Items, ...) - Data: 55 4D 00 00  returns 0x01 (0000ms, 0629ms total)
T5DF0 028:543 JLINK_ReadMem (0x20000024, 0x0004 Bytes, ...) -- Read from C cache (4 bytes @ 0x20000024) - Data: 00 00 00 00  returns 0x00 (0000ms, 0629ms total)
T5DF0 028:544 JLINK_ReadMem (0x08003648, 0x003C Bytes, ...) -- Read from C cache (60 bytes @ 0x08003648) - Data: 0F A1 02 A8 FC F7 B7 FE FD F7 F0 FE FD F7 60 FC ...  returns 0x00 (0000ms, 0629ms total)
T5D8C 028:984 JLINK_Step() -- Read from C cache (2 bytes @ 0x08003648) -- Simulated  returns 0x00 (0000ms, 0629ms total)
T5D8C 028:984 JLINK_ReadReg(R15 (PC))  returns 0x0800364A (0000ms, 0629ms total)
T5D8C 028:984 JLINK_ReadReg(XPSR)  returns 0x21000000 (0000ms, 0629ms total)
T5D8C 028:985 JLINK_ReadReg(R0)  returns 0x200092E8 (0000ms, 0629ms total)
T5D8C 028:985 JLINK_ReadReg(R1)  returns 0x08003688 (0000ms, 0629ms total)
T5D8C 028:985 JLINK_ReadReg(R2)  returns 0x00000014 (0000ms, 0629ms total)
T5D8C 028:985 JLINK_ReadReg(R3)  returns 0x200094E8 (0000ms, 0629ms total)
T5D8C 028:985 JLINK_ReadReg(R4)  returns 0x00000000 (0000ms, 0629ms total)
T5D8C 028:985 JLINK_ReadReg(R5)  returns 0x20009284 (0000ms, 0629ms total)
T5D8C 028:985 JLINK_ReadReg(R6)  returns 0x00000000 (0000ms, 0629ms total)
T5D8C 028:985 JLINK_ReadReg(R7)  returns 0x00000000 (0000ms, 0629ms total)
T5D8C 028:985 JLINK_ReadReg(R8)  returns 0x00000000 (0000ms, 0629ms total)
T5D8C 028:985 JLINK_ReadReg(R9)  returns 0x20000160 (0000ms, 0629ms total)
T5D8C 028:985 JLINK_ReadReg(R10)  returns 0x08005EE0 (0000ms, 0629ms total)
T5D8C 028:985 JLINK_ReadReg(R11)  returns 0x00000000 (0000ms, 0629ms total)
T5D8C 028:985 JLINK_ReadReg(R12)  returns 0x200092C4 (0000ms, 0629ms total)
T5D8C 028:985 JLINK_ReadReg(R13 (SP))  returns 0x200098C8 (0000ms, 0629ms total)
T5D8C 028:985 JLINK_ReadReg(R14)  returns 0x080001E5 (0000ms, 0629ms total)
T5D8C 028:985 JLINK_ReadReg(R15 (PC))  returns 0x0800364A (0000ms, 0629ms total)
T5D8C 028:985 JLINK_ReadReg(XPSR)  returns 0x21000000 (0000ms, 0629ms total)
T5D8C 028:985 JLINK_ReadReg(MSP)  returns 0x200098C8 (0000ms, 0629ms total)
T5D8C 028:985 JLINK_ReadReg(PSP)  returns 0x20000800 (0000ms, 0629ms total)
T5D8C 028:985 JLINK_ReadReg(CFBP)  returns 0x00000000 (0000ms, 0629ms total)
T5DF0 028:985 JLINK_ReadMemU32(0xE0001004, 0x0001 Items, ...) - Data: 55 4D 00 00  returns 0x01 (0000ms, 0629ms total)
T5DF0 028:986 JLINK_ReadMem (0x20000024, 0x0004 Bytes, ...) -- Read from C cache (4 bytes @ 0x20000024) - Data: 00 00 00 00  returns 0x00 (0000ms, 0629ms total)
T5DF0 028:991 JLINK_ReadMem (0x08003648, 0x003C Bytes, ...) -- Read from C cache (60 bytes @ 0x08003648) - Data: 0F A1 02 A8 FC F7 B7 FE FD F7 F0 FE FD F7 60 FC ...  returns 0x00 (0000ms, 0629ms total)
T5D8C 029:385 JLINK_Step() -- Read from C cache (2 bytes @ 0x0800364A) -- Simulated  returns 0x00 (0001ms, 0630ms total)
T5D8C 029:386 JLINK_ReadReg(R15 (PC))  returns 0x0800364C (0000ms, 0630ms total)
T5D8C 029:386 JLINK_ReadReg(XPSR)  returns 0x21000000 (0000ms, 0630ms total)
T5D8C 029:386 JLINK_ReadReg(R0)  returns 0x200098D0 (0000ms, 0630ms total)
T5D8C 029:386 JLINK_ReadReg(R1)  returns 0x08003688 (0000ms, 0630ms total)
T5D8C 029:386 JLINK_ReadReg(R2)  returns 0x00000014 (0000ms, 0630ms total)
T5D8C 029:386 JLINK_ReadReg(R3)  returns 0x200094E8 (0000ms, 0630ms total)
T5D8C 029:386 JLINK_ReadReg(R4)  returns 0x00000000 (0000ms, 0630ms total)
T5D8C 029:386 JLINK_ReadReg(R5)  returns 0x20009284 (0000ms, 0630ms total)
T5D8C 029:386 JLINK_ReadReg(R6)  returns 0x00000000 (0000ms, 0630ms total)
T5D8C 029:386 JLINK_ReadReg(R7)  returns 0x00000000 (0000ms, 0630ms total)
T5D8C 029:386 JLINK_ReadReg(R8)  returns 0x00000000 (0000ms, 0630ms total)
T5D8C 029:386 JLINK_ReadReg(R9)  returns 0x20000160 (0000ms, 0630ms total)
T5D8C 029:386 JLINK_ReadReg(R10)  returns 0x08005EE0 (0000ms, 0630ms total)
T5D8C 029:386 JLINK_ReadReg(R11)  returns 0x00000000 (0000ms, 0630ms total)
T5D8C 029:386 JLINK_ReadReg(R12)  returns 0x200092C4 (0000ms, 0630ms total)
T5D8C 029:386 JLINK_ReadReg(R13 (SP))  returns 0x200098C8 (0000ms, 0630ms total)
T5D8C 029:386 JLINK_ReadReg(R14)  returns 0x080001E5 (0000ms, 0630ms total)
T5D8C 029:386 JLINK_ReadReg(R15 (PC))  returns 0x0800364C (0000ms, 0630ms total)
T5D8C 029:386 JLINK_ReadReg(XPSR)  returns 0x21000000 (0000ms, 0630ms total)
T5D8C 029:386 JLINK_ReadReg(MSP)  returns 0x200098C8 (0000ms, 0630ms total)
T5D8C 029:386 JLINK_ReadReg(PSP)  returns 0x20000800 (0000ms, 0630ms total)
T5D8C 029:386 JLINK_ReadReg(CFBP)  returns 0x00000000 (0000ms, 0630ms total)
T5DF0 029:386 JLINK_ReadMemU32(0xE0001004, 0x0001 Items, ...) - Data: 55 4D 00 00  returns 0x01 (0000ms, 0630ms total)
T5DF0 029:387 JLINK_ReadMem (0x20000024, 0x0004 Bytes, ...) -- Read from C cache (4 bytes @ 0x20000024) - Data: 00 00 00 00  returns 0x00 (0000ms, 0630ms total)
T5DF0 029:393 JLINK_ReadMem (0x08003648, 0x003C Bytes, ...) -- Read from C cache (60 bytes @ 0x08003648) - Data: 0F A1 02 A8 FC F7 B7 FE FD F7 F0 FE FD F7 60 FC ...  returns 0x00 (0000ms, 0630ms total)
T5D8C 029:809 JLINK_SetBPEx(Addr = 0x08003650, Type = 0xFFFFFFF2)  returns 0x00000002 (0000ms, 0630ms total)
T5D8C 029:809 JLINK_Go() -- CPU_WriteMem(4 bytes @ 0xE0002008) -- CPU_WriteMem(4 bytes @ 0xE0001004) (0002ms, 0632ms total)
T5D8C 029:912 JLINK_IsHalted()  returns TRUE (0003ms, 0635ms total)
T5D8C 029:915 JLINK_Halt()  returns 0x00 (0000ms, 0632ms total)
T5D8C 029:915 JLINK_IsHalted()  returns TRUE (0000ms, 0632ms total)
T5D8C 029:915 JLINK_IsHalted()  returns TRUE (0000ms, 0632ms total)
T5D8C 029:915 JLINK_IsHalted()  returns TRUE (0000ms, 0632ms total)
T5D8C 029:915 JLINK_ReadReg(R15 (PC))  returns 0x08003650 (0000ms, 0632ms total)
T5D8C 029:915 JLINK_ReadReg(XPSR)  returns 0x61000000 (0000ms, 0632ms total)
T5D8C 029:915 JLINK_ClrBPEx(BPHandle = 0x00000002)  returns 0x00 (0000ms, 0632ms total)
T5D8C 029:915 JLINK_ReadMemU32(0xE000ED30, 0x0001 Items, ...) -- CPU_ReadMem(4 bytes @ 0xE000ED30) - Data: 03 00 00 00  returns 0x01 (0000ms, 0632ms total)
T5D8C 029:915 JLINK_ReadMemU32(0xE0001028, 0x0001 Items, ...) -- CPU_ReadMem(4 bytes @ 0xE0001028) - Data: 00 00 00 00  returns 0x01 (0001ms, 0633ms total)
T5D8C 029:916 JLINK_ReadMemU32(0xE0001038, 0x0001 Items, ...) -- CPU_ReadMem(4 bytes @ 0xE0001038) - Data: 00 02 00 00  returns 0x01 (0001ms, 0634ms total)
T5D8C 029:917 JLINK_ReadMemU32(0xE0001048, 0x0001 Items, ...) -- CPU_ReadMem(4 bytes @ 0xE0001048) - Data: 00 00 00 00  returns 0x01 (0000ms, 0634ms total)
T5D8C 029:917 JLINK_ReadMemU32(0xE0001058, 0x0001 Items, ...) -- CPU_ReadMem(4 bytes @ 0xE0001058) - Data: 00 00 00 00  returns 0x01 (0001ms, 0635ms total)
T5D8C 029:918 JLINK_ReadReg(R0)  returns 0x200098E4 (0000ms, 0635ms total)
T5D8C 029:918 JLINK_ReadReg(R1)  returns 0x0800369C (0000ms, 0635ms total)
T5D8C 029:918 JLINK_ReadReg(R2)  returns 0xFFFFFFF4 (0000ms, 0635ms total)
T5D8C 029:918 JLINK_ReadReg(R3)  returns 0x00000000 (0000ms, 0635ms total)
T5D8C 029:918 JLINK_ReadReg(R4)  returns 0x00000000 (0000ms, 0635ms total)
T5D8C 029:918 JLINK_ReadReg(R5)  returns 0x20009284 (0000ms, 0635ms total)
T5D8C 029:918 JLINK_ReadReg(R6)  returns 0x00000000 (0000ms, 0635ms total)
T5D8C 029:918 JLINK_ReadReg(R7)  returns 0x00000000 (0000ms, 0635ms total)
T5D8C 029:918 JLINK_ReadReg(R8)  returns 0x00000000 (0000ms, 0635ms total)
T5D8C 029:918 JLINK_ReadReg(R9)  returns 0x20000160 (0000ms, 0635ms total)
T5D8C 029:918 JLINK_ReadReg(R10)  returns 0x08005EE0 (0000ms, 0635ms total)
T5D8C 029:918 JLINK_ReadReg(R11)  returns 0x00000000 (0000ms, 0635ms total)
T5D8C 029:918 JLINK_ReadReg(R12)  returns 0x00000000 (0000ms, 0635ms total)
T5D8C 029:918 JLINK_ReadReg(R13 (SP))  returns 0x200098C8 (0000ms, 0635ms total)
T5D8C 029:918 JLINK_ReadReg(R14)  returns 0x08003651 (0000ms, 0635ms total)
T5D8C 029:918 JLINK_ReadReg(R15 (PC))  returns 0x08003650 (0000ms, 0635ms total)
T5D8C 029:918 JLINK_ReadReg(XPSR)  returns 0x61000000 (0000ms, 0635ms total)
T5D8C 029:918 JLINK_ReadReg(MSP)  returns 0x200098C8 (0000ms, 0635ms total)
T5D8C 029:918 JLINK_ReadReg(PSP)  returns 0x20000800 (0000ms, 0635ms total)
T5D8C 029:918 JLINK_ReadReg(CFBP)  returns 0x00000000 (0000ms, 0635ms total)
T5DF0 029:918 JLINK_ReadMemU32(0xE0001004, 0x0001 Items, ...) -- CPU_ReadMem(4 bytes @ 0xE0001004) - Data: 7B 4D 00 00  returns 0x01 (0001ms, 0636ms total)
T5DF0 029:920 JLINK_ReadMem (0x20000024, 0x0004 Bytes, ...) -- CPU_ReadMem(64 bytes @ 0x20000000) -- Updating C cache (64 bytes @ 0x20000000) -- Read from C cache (4 bytes @ 0x20000024) - Data: 00 00 00 00  returns 0x00 (0001ms, 0637ms total)
T5DF0 029:921 JLINK_ReadMem (0x08003650, 0x003C Bytes, ...) -- CPU_ReadMem(128 bytes @ 0x08003640) -- Updating C cache (128 bytes @ 0x08003640) -- Read from C cache (60 bytes @ 0x08003650) - Data: FD F7 F0 FE FD F7 60 FC 73 21 1F 20 CD E9 00 01 ...  returns 0x00 (0002ms, 0639ms total)
T5D8C 030:151 JLINK_SetBPEx(Addr = 0x08003654, Type = 0xFFFFFFF2)  returns 0x00000003 (0000ms, 0639ms total)
T5D8C 030:151 JLINK_Go() -- CPU_WriteMem(4 bytes @ 0xE0002008) (0002ms, 0641ms total)
T5D8C 030:254 JLINK_IsHalted()  returns FALSE (0000ms, 0641ms total)
T5D8C 030:355 JLINK_IsHalted()  returns FALSE (0000ms, 0641ms total)
T5D8C 030:456 JLINK_IsHalted()  returns FALSE (0000ms, 0641ms total)
T5D8C 030:557 JLINK_IsHalted()  returns FALSE (0000ms, 0641ms total)
T5D8C 030:658 JLINK_IsHalted()  returns FALSE (0000ms, 0641ms total)
T5D8C 030:758 JLINK_IsHalted()  returns FALSE (0000ms, 0641ms total)
T5D8C 030:860 JLINK_IsHalted()  returns FALSE (0000ms, 0641ms total)
T5D8C 030:961 JLINK_IsHalted()  returns FALSE (0000ms, 0641ms total)
T5D8C 031:062 JLINK_IsHalted()  returns FALSE (0000ms, 0641ms total)
T5D8C 031:163 JLINK_IsHalted()  returns FALSE (0000ms, 0641ms total)
T5D8C 031:264 JLINK_IsHalted()  returns FALSE (0000ms, 0641ms total)
T5D8C 031:365 JLINK_IsHalted()  returns FALSE (0000ms, 0641ms total)
T5D8C 031:465 JLINK_IsHalted()  returns FALSE (0000ms, 0641ms total)
T5D8C 031:566 JLINK_IsHalted()  returns FALSE (0000ms, 0641ms total)
T5D8C 031:667 JLINK_IsHalted()  returns FALSE (0000ms, 0641ms total)
T5D8C 031:768 JLINK_IsHalted()  returns FALSE (0000ms, 0641ms total)
T5D8C 031:869 JLINK_IsHalted()  returns TRUE (0002ms, 0643ms total)
T5D8C 031:871 JLINK_Halt()  returns 0x00 (0000ms, 0641ms total)
T5D8C 031:871 JLINK_IsHalted()  returns TRUE (0000ms, 0641ms total)
T5D8C 031:871 JLINK_IsHalted()  returns TRUE (0000ms, 0641ms total)
T5D8C 031:871 JLINK_IsHalted()  returns TRUE (0000ms, 0641ms total)
T5D8C 031:871 JLINK_ReadReg(R15 (PC))  returns 0x08003654 (0000ms, 0641ms total)
T5D8C 031:871 JLINK_ReadReg(XPSR)  returns 0xA1000000 (0001ms, 0642ms total)
T5D8C 031:872 JLINK_ClrBPEx(BPHandle = 0x00000003)  returns 0x00 (0000ms, 0642ms total)
T5D8C 031:872 JLINK_ReadMemU32(0xE000ED30, 0x0001 Items, ...) -- CPU_ReadMem(4 bytes @ 0xE000ED30) - Data: 03 00 00 00  returns 0x01 (0001ms, 0643ms total)
T5D8C 031:873 JLINK_ReadMemU32(0xE0001028, 0x0001 Items, ...) -- CPU_ReadMem(4 bytes @ 0xE0001028) - Data: 00 00 00 00  returns 0x01 (0000ms, 0643ms total)
T5D8C 031:873 JLINK_ReadMemU32(0xE0001038, 0x0001 Items, ...) -- CPU_ReadMem(4 bytes @ 0xE0001038) - Data: 00 02 00 00  returns 0x01 (0001ms, 0644ms total)
T5D8C 031:874 JLINK_ReadMemU32(0xE0001048, 0x0001 Items, ...) -- CPU_ReadMem(4 bytes @ 0xE0001048) - Data: 00 00 00 00  returns 0x01 (0000ms, 0644ms total)
T5D8C 031:874 JLINK_ReadMemU32(0xE0001058, 0x0001 Items, ...) -- CPU_ReadMem(4 bytes @ 0xE0001058) - Data: 00 00 00 00  returns 0x01 (0001ms, 0645ms total)
T5D8C 031:875 JLINK_ReadReg(R0)  returns 0xE000E00F (0000ms, 0645ms total)
T5D8C 031:875 JLINK_ReadReg(R1)  returns 0x00000010 (0000ms, 0645ms total)
T5D8C 031:875 JLINK_ReadReg(R2)  returns 0x00000002 (0000ms, 0645ms total)
T5D8C 031:875 JLINK_ReadReg(R3)  returns 0x20000028 (0000ms, 0645ms total)
T5D8C 031:875 JLINK_ReadReg(R4)  returns 0x00000000 (0000ms, 0645ms total)
T5D8C 031:875 JLINK_ReadReg(R5)  returns 0x20009284 (0000ms, 0645ms total)
T5D8C 031:875 JLINK_ReadReg(R6)  returns 0x00000000 (0000ms, 0645ms total)
T5D8C 031:875 JLINK_ReadReg(R7)  returns 0x00000000 (0000ms, 0645ms total)
T5D8C 031:875 JLINK_ReadReg(R8)  returns 0x00000000 (0000ms, 0645ms total)
T5D8C 031:875 JLINK_ReadReg(R9)  returns 0x20000160 (0000ms, 0645ms total)
T5D8C 031:875 JLINK_ReadReg(R10)  returns 0x08005EE0 (0000ms, 0645ms total)
T5D8C 031:875 JLINK_ReadReg(R11)  returns 0x00000000 (0000ms, 0645ms total)
T5D8C 031:875 JLINK_ReadReg(R12)  returns 0x0000000F (0000ms, 0645ms total)
T5D8C 031:875 JLINK_ReadReg(R13 (SP))  returns 0x200098C8 (0000ms, 0645ms total)
T5D8C 031:875 JLINK_ReadReg(R14)  returns 0x080014A5 (0000ms, 0645ms total)
T5D8C 031:875 JLINK_ReadReg(R15 (PC))  returns 0x08003654 (0000ms, 0645ms total)
T5D8C 031:875 JLINK_ReadReg(XPSR)  returns 0xA1000000 (0000ms, 0645ms total)
T5D8C 031:875 JLINK_ReadReg(MSP)  returns 0x200098C8 (0000ms, 0645ms total)
T5D8C 031:875 JLINK_ReadReg(PSP)  returns 0x20000800 (0000ms, 0645ms total)
T5D8C 031:875 JLINK_ReadReg(CFBP)  returns 0x00000000 (0000ms, 0645ms total)
T5DF0 031:875 JLINK_ReadMemU32(0xE0001004, 0x0001 Items, ...) -- CPU_ReadMem(4 bytes @ 0xE0001004) - Data: 50 07 F2 06  returns 0x01 (0001ms, 0646ms total)
T5DF0 031:877 JLINK_ReadMem (0x20000024, 0x0004 Bytes, ...) -- CPU_ReadMem(64 bytes @ 0x20000000) -- Updating C cache (64 bytes @ 0x20000000) -- Read from C cache (4 bytes @ 0x20000024) - Data: 00 00 00 00  returns 0x00 (0001ms, 0647ms total)
T5DF0 031:879 JLINK_ReadMem (0x08003654, 0x003C Bytes, ...) -- CPU_ReadMem(128 bytes @ 0x08003640) -- Updating C cache (128 bytes @ 0x08003640) -- Read from C cache (60 bytes @ 0x08003654) - Data: FD F7 60 FC 73 21 1F 20 CD E9 00 01 50 21 A8 23 ...  returns 0x00 (0002ms, 0649ms total)
T5D8C 037:082 JLINK_Step() -- Read from C cache (2 bytes @ 0x08003654) -- Read from C cache (2 bytes @ 0x08003656) -- Simulated  returns 0x00 (0001ms, 0650ms total)
T5D8C 037:083 JLINK_ReadReg(R15 (PC))  returns 0x08000F18 (0000ms, 0650ms total)
T5D8C 037:083 JLINK_ReadReg(XPSR)  returns 0xA1000000 (0000ms, 0650ms total)
T5D8C 037:083 JLINK_ReadReg(R0)  returns 0xE000E00F (0000ms, 0650ms total)
T5D8C 037:083 JLINK_ReadReg(R1)  returns 0x00000010 (0000ms, 0650ms total)
T5D8C 037:083 JLINK_ReadReg(R2)  returns 0x00000002 (0000ms, 0650ms total)
T5D8C 037:083 JLINK_ReadReg(R3)  returns 0x20000028 (0000ms, 0650ms total)
T5D8C 037:083 JLINK_ReadReg(R4)  returns 0x00000000 (0000ms, 0650ms total)
T5D8C 037:083 JLINK_ReadReg(R5)  returns 0x20009284 (0000ms, 0650ms total)
T5D8C 037:083 JLINK_ReadReg(R6)  returns 0x00000000 (0000ms, 0650ms total)
T5D8C 037:083 JLINK_ReadReg(R7)  returns 0x00000000 (0000ms, 0650ms total)
T5D8C 037:083 JLINK_ReadReg(R8)  returns 0x00000000 (0000ms, 0650ms total)
T5D8C 037:083 JLINK_ReadReg(R9)  returns 0x20000160 (0000ms, 0650ms total)
T5D8C 037:083 JLINK_ReadReg(R10)  returns 0x08005EE0 (0000ms, 0650ms total)
T5D8C 037:083 JLINK_ReadReg(R11)  returns 0x00000000 (0000ms, 0650ms total)
T5D8C 037:083 JLINK_ReadReg(R12)  returns 0x0000000F (0000ms, 0650ms total)
T5D8C 037:083 JLINK_ReadReg(R13 (SP))  returns 0x200098C8 (0000ms, 0650ms total)
T5D8C 037:083 JLINK_ReadReg(R14)  returns 0x08003659 (0000ms, 0650ms total)
T5D8C 037:083 JLINK_ReadReg(R15 (PC))  returns 0x08000F18 (0000ms, 0650ms total)
T5D8C 037:083 JLINK_ReadReg(XPSR)  returns 0xA1000000 (0000ms, 0650ms total)
T5D8C 037:083 JLINK_ReadReg(MSP)  returns 0x200098C8 (0000ms, 0650ms total)
T5D8C 037:083 JLINK_ReadReg(PSP)  returns 0x20000800 (0000ms, 0650ms total)
T5D8C 037:083 JLINK_ReadReg(CFBP)  returns 0x00000000 (0000ms, 0650ms total)
T5DF0 037:083 JLINK_ReadMemU32(0xE0001004, 0x0001 Items, ...) - Data: 50 07 F2 06  returns 0x01 (0000ms, 0650ms total)
T5DF0 037:084 JLINK_ReadMem (0x20000024, 0x0004 Bytes, ...) -- Read from C cache (4 bytes @ 0x20000024) - Data: 00 00 00 00  returns 0x00 (0000ms, 0650ms total)
T5DF0 039:165 JLINK_ReadMem (0x00000000, 0x0001 Bytes, ...) -- CPU_ReadMem(4 bytes @ 0x00000004) -- CPU_ReadMem(64 bytes @ 0x08000000) -- Updating C cache (64 bytes @ 0x08000000) -- Read from C cache (1 bytes @ 0x08000000) - Data: E8  returns 0x00 (0002ms, 0652ms total)
T5DF0 043:347 JLINK_ReadMem (0x200000D0, 0x0004 Bytes, ...) -- CPU_ReadMem(64 bytes @ 0x200000C0) -- Updating C cache (64 bytes @ 0x200000C0) -- Read from C cache (4 bytes @ 0x200000D0) - Data: 00 00 00 00  returns 0x00 (0001ms, 0653ms total)
T5DF0 043:348 JLINK_ReadMem (0x200000D4, 0x0004 Bytes, ...) -- Read from C cache (4 bytes @ 0x200000D4) - Data: 00 00 00 00  returns 0x00 (0000ms, 0653ms total)
T5DF0 043:348 JLINK_ReadMem (0x200000D8, 0x0004 Bytes, ...) -- Read from C cache (4 bytes @ 0x200000D8) - Data: 00 00 00 00  returns 0x00 (0000ms, 0653ms total)
T5DF0 043:348 JLINK_ReadMem (0x200000DC, 0x0004 Bytes, ...) -- Read from C cache (4 bytes @ 0x200000DC) - Data: 00 00 00 00  returns 0x00 (0000ms, 0653ms total)
T5DF0 043:348 JLINK_ReadMem (0x200000E0, 0x0004 Bytes, ...) -- Read from C cache (4 bytes @ 0x200000E0) - Data: 00 00 00 00  returns 0x00 (0000ms, 0653ms total)
T5DF0 043:348 JLINK_ReadMem (0x200000E4, 0x0004 Bytes, ...) -- Read from C cache (4 bytes @ 0x200000E4) - Data: 00 00 00 00  returns 0x00 (0000ms, 0653ms total)
T5DF0 043:348 JLINK_ReadMem (0x200000E8, 0x0004 Bytes, ...) -- Read from C cache (4 bytes @ 0x200000E8) - Data: 00 00 00 00  returns 0x00 (0000ms, 0653ms total)
T5DF0 043:348 JLINK_ReadMem (0x200000EC, 0x0004 Bytes, ...) -- Read from C cache (4 bytes @ 0x200000EC) - Data: 00 00 00 00  returns 0x00 (0000ms, 0653ms total)
T5DF0 043:348 JLINK_ReadMem (0x200000F0, 0x0004 Bytes, ...) -- Read from C cache (4 bytes @ 0x200000F0) - Data: 00 00 00 00  returns 0x00 (0000ms, 0653ms total)
T5DF0 043:348 JLINK_ReadMem (0x200000F4, 0x0001 Bytes, ...) -- Read from C cache (1 bytes @ 0x200000F4) - Data: 00  returns 0x00 (0000ms, 0653ms total)
T5DF0 043:348 JLINK_ReadMem (0x200000F5, 0x0001 Bytes, ...) -- Read from C cache (1 bytes @ 0x200000F5) - Data: 00  returns 0x00 (0000ms, 0653ms total)
T5DF0 043:348 JLINK_ReadMem (0x200000F6, 0x0001 Bytes, ...) -- Read from C cache (1 bytes @ 0x200000F6) - Data: 00  returns 0x00 (0000ms, 0653ms total)
T5DF0 043:348 JLINK_ReadMem (0x200000F7, 0x0001 Bytes, ...) -- Read from C cache (1 bytes @ 0x200000F7) - Data: 00  returns 0x00 (0000ms, 0653ms total)
T5DF0 043:348 JLINK_ReadMem (0x200000F8, 0x0001 Bytes, ...) -- Read from C cache (1 bytes @ 0x200000F8) - Data: 00  returns 0x00 (0000ms, 0653ms total)
T5DF0 043:348 JLINK_ReadMem (0x200000F9, 0x0001 Bytes, ...) -- Read from C cache (1 bytes @ 0x200000F9) - Data: 00  returns 0x00 (0000ms, 0653ms total)
T5DF0 043:348 JLINK_ReadMem (0x200000FA, 0x0001 Bytes, ...) -- Read from C cache (1 bytes @ 0x200000FA) - Data: 00  returns 0x00 (0000ms, 0653ms total)
T5DF0 043:348 JLINK_ReadMem (0x200000FC, 0x0002 Bytes, ...) -- Read from C cache (2 bytes @ 0x200000FC) - Data: 00 00  returns 0x00 (0000ms, 0653ms total)
T5DF0 043:348 JLINK_ReadMem (0x200000FE, 0x0001 Bytes, ...) -- Read from C cache (1 bytes @ 0x200000FE) - Data: 00  returns 0x00 (0000ms, 0653ms total)
T5DF0 043:348 JLINK_ReadMem (0x200000FF, 0x0001 Bytes, ...) -- Read from C cache (1 bytes @ 0x200000FF) - Data: 00  returns 0x00 (0000ms, 0653ms total)
T5DF0 043:348 JLINK_ReadMem (0x20000100, 0x0001 Bytes, ...) -- CPU_ReadMem(64 bytes @ 0x20000100) -- Updating C cache (64 bytes @ 0x20000100) -- Read from C cache (1 bytes @ 0x20000100) - Data: 00  returns 0x00 (0001ms, 0654ms total)
T5DF0 043:349 JLINK_ReadMem (0x20000101, 0x0001 Bytes, ...) -- Read from C cache (1 bytes @ 0x20000101) - Data: 00  returns 0x00 (0000ms, 0654ms total)
T5D8C 053:666 JLINK_ReadMem (0x08000F18, 0x003C Bytes, ...) -- CPU_ReadMem(128 bytes @ 0x08000F00) -- Updating C cache (128 bytes @ 0x08000F00) -- Read from C cache (60 bytes @ 0x08000F18) - Data: 10 B5 13 A0 88 B0 D0 E9 00 10 CD E9 03 10 02 F0 ...  returns 0x00 (0002ms, 0656ms total)
T5D8C 053:668 JLINK_Step() -- Read from C cache (2 bytes @ 0x08000F18) -- CPU_WriteMem(8 bytes @ 0x200098C0) -- Simulated  returns 0x00 (0000ms, 0656ms total)
T5D8C 053:668 JLINK_ReadReg(R15 (PC))  returns 0x08000F1A (0000ms, 0656ms total)
T5D8C 053:668 JLINK_ReadReg(XPSR)  returns 0xA1000000 (0000ms, 0656ms total)
T5D8C 053:669 JLINK_ReadReg(R0)  returns 0xE000E00F (0000ms, 0656ms total)
T5D8C 053:669 JLINK_ReadReg(R1)  returns 0x00000010 (0000ms, 0656ms total)
T5D8C 053:669 JLINK_ReadReg(R2)  returns 0x00000002 (0000ms, 0656ms total)
T5D8C 053:669 JLINK_ReadReg(R3)  returns 0x20000028 (0000ms, 0656ms total)
T5D8C 053:669 JLINK_ReadReg(R4)  returns 0x00000000 (0000ms, 0656ms total)
T5D8C 053:669 JLINK_ReadReg(R5)  returns 0x20009284 (0000ms, 0656ms total)
T5D8C 053:669 JLINK_ReadReg(R6)  returns 0x00000000 (0000ms, 0656ms total)
T5D8C 053:669 JLINK_ReadReg(R7)  returns 0x00000000 (0000ms, 0656ms total)
T5D8C 053:669 JLINK_ReadReg(R8)  returns 0x00000000 (0000ms, 0656ms total)
T5D8C 053:669 JLINK_ReadReg(R9)  returns 0x20000160 (0000ms, 0656ms total)
T5D8C 053:669 JLINK_ReadReg(R10)  returns 0x08005EE0 (0000ms, 0656ms total)
T5D8C 053:669 JLINK_ReadReg(R11)  returns 0x00000000 (0000ms, 0656ms total)
T5D8C 053:669 JLINK_ReadReg(R12)  returns 0x0000000F (0000ms, 0656ms total)
T5D8C 053:669 JLINK_ReadReg(R13 (SP))  returns 0x200098C0 (0000ms, 0656ms total)
T5D8C 053:669 JLINK_ReadReg(R14)  returns 0x08003659 (0000ms, 0656ms total)
T5D8C 053:669 JLINK_ReadReg(R15 (PC))  returns 0x08000F1A (0000ms, 0656ms total)
T5D8C 053:669 JLINK_ReadReg(XPSR)  returns 0xA1000000 (0000ms, 0656ms total)
T5D8C 053:669 JLINK_ReadReg(MSP)  returns 0x200098C0 (0000ms, 0656ms total)
T5D8C 053:669 JLINK_ReadReg(PSP)  returns 0x20000800 (0000ms, 0656ms total)
T5D8C 053:669 JLINK_ReadReg(CFBP)  returns 0x00000000 (0000ms, 0656ms total)
T5DF0 053:669 JLINK_ReadMemU32(0xE0001004, 0x0001 Items, ...) - Data: 50 07 F2 06  returns 0x01 (0000ms, 0656ms total)
T5DF0 053:669 JLINK_ReadMem (0x20000024, 0x0004 Bytes, ...) -- Read from C cache (4 bytes @ 0x20000024) - Data: 00 00 00 00  returns 0x00 (0000ms, 0656ms total)
T5DF0 053:669 JLINK_ReadMem (0x200000D0, 0x0004 Bytes, ...) -- Read from C cache (4 bytes @ 0x200000D0) - Data: 00 00 00 00  returns 0x00 (0000ms, 0656ms total)
T5DF0 053:669 JLINK_ReadMem (0x200000D4, 0x0004 Bytes, ...) -- Read from C cache (4 bytes @ 0x200000D4) - Data: 00 00 00 00  returns 0x00 (0000ms, 0656ms total)
T5DF0 053:670 JLINK_ReadMem (0x200000E0, 0x0004 Bytes, ...) -- Read from C cache (4 bytes @ 0x200000E0) - Data: 00 00 00 00  returns 0x00 (0000ms, 0656ms total)
T5DF0 053:670 JLINK_ReadMem (0x200000E4, 0x0004 Bytes, ...) -- Read from C cache (4 bytes @ 0x200000E4) - Data: 00 00 00 00  returns 0x00 (0000ms, 0656ms total)
T5DF0 053:670 JLINK_ReadMem (0x200000E8, 0x0004 Bytes, ...) -- Read from C cache (4 bytes @ 0x200000E8) - Data: 00 00 00 00  returns 0x00 (0000ms, 0656ms total)
T5DF0 053:670 JLINK_ReadMem (0x200000EC, 0x0004 Bytes, ...) -- Read from C cache (4 bytes @ 0x200000EC) - Data: 00 00 00 00  returns 0x00 (0000ms, 0656ms total)
T5DF0 053:670 JLINK_ReadMem (0x200000F0, 0x0004 Bytes, ...) -- Read from C cache (4 bytes @ 0x200000F0) - Data: 00 00 00 00  returns 0x00 (0000ms, 0656ms total)
T5DF0 053:670 JLINK_ReadMem (0x200000F4, 0x0001 Bytes, ...) -- Read from C cache (1 bytes @ 0x200000F4) - Data: 00  returns 0x00 (0000ms, 0656ms total)
T5DF0 053:670 JLINK_ReadMem (0x200000F5, 0x0006 Bytes, ...) -- Read from C cache (6 bytes @ 0x200000F5) - Data: 00 00 00 00 00 00  returns 0x00 (0000ms, 0656ms total)
T5DF0 053:670 JLINK_ReadMem (0x200000FC, 0x0002 Bytes, ...) -- Read from C cache (2 bytes @ 0x200000FC) - Data: 00 00  returns 0x00 (0000ms, 0656ms total)
T5DF0 053:670 JLINK_ReadMem (0x200000FE, 0x0001 Bytes, ...) -- Read from C cache (1 bytes @ 0x200000FE) - Data: 00  returns 0x00 (0000ms, 0656ms total)
T5DF0 053:670 JLINK_ReadMem (0x200000FF, 0x0002 Bytes, ...) -- Read from C cache (2 bytes @ 0x200000FF) - Data: 00 00  returns 0x00 (0000ms, 0656ms total)
T5DF0 053:670 JLINK_ReadMem (0x20000101, 0x0001 Bytes, ...) -- Read from C cache (1 bytes @ 0x20000101) - Data: 00  returns 0x00 (0000ms, 0656ms total)
T5DF0 053:670 JLINK_ReadMem (0x08000F1A, 0x0002 Bytes, ...) -- Read from C cache (2 bytes @ 0x08000F1A) - Data: 13 A0  returns 0x00 (0000ms, 0656ms total)
T5DF0 053:670 JLINK_ReadMem (0x08000F1C, 0x003C Bytes, ...) -- Read from C cache (60 bytes @ 0x08000F1C) - Data: 88 B0 D0 E9 00 10 CD E9 03 10 02 F0 D1 FB 02 F0 ...  returns 0x00 (0000ms, 0656ms total)
T5D8C 055:210 JLINK_Step() -- Read from C cache (2 bytes @ 0x08000F1A) -- Simulated  returns 0x00 (0001ms, 0657ms total)
T5D8C 055:211 JLINK_ReadReg(R15 (PC))  returns 0x08000F1C (0000ms, 0657ms total)
T5D8C 055:211 JLINK_ReadReg(XPSR)  returns 0xA1000000 (0000ms, 0657ms total)
T5D8C 055:211 JLINK_ReadReg(R0)  returns 0x08000F68 (0000ms, 0657ms total)
T5D8C 055:211 JLINK_ReadReg(R1)  returns 0x00000010 (0000ms, 0657ms total)
T5D8C 055:211 JLINK_ReadReg(R2)  returns 0x00000002 (0000ms, 0657ms total)
T5D8C 055:211 JLINK_ReadReg(R3)  returns 0x20000028 (0000ms, 0657ms total)
T5D8C 055:211 JLINK_ReadReg(R4)  returns 0x00000000 (0000ms, 0657ms total)
T5D8C 055:211 JLINK_ReadReg(R5)  returns 0x20009284 (0000ms, 0657ms total)
T5D8C 055:211 JLINK_ReadReg(R6)  returns 0x00000000 (0000ms, 0657ms total)
T5D8C 055:211 JLINK_ReadReg(R7)  returns 0x00000000 (0000ms, 0657ms total)
T5D8C 055:211 JLINK_ReadReg(R8)  returns 0x00000000 (0000ms, 0657ms total)
T5D8C 055:211 JLINK_ReadReg(R9)  returns 0x20000160 (0000ms, 0657ms total)
T5D8C 055:211 JLINK_ReadReg(R10)  returns 0x08005EE0 (0000ms, 0657ms total)
T5D8C 055:211 JLINK_ReadReg(R11)  returns 0x00000000 (0000ms, 0657ms total)
T5D8C 055:211 JLINK_ReadReg(R12)  returns 0x0000000F (0000ms, 0657ms total)
T5D8C 055:211 JLINK_ReadReg(R13 (SP))  returns 0x200098C0 (0000ms, 0657ms total)
T5D8C 055:211 JLINK_ReadReg(R14)  returns 0x08003659 (0000ms, 0657ms total)
T5D8C 055:211 JLINK_ReadReg(R15 (PC))  returns 0x08000F1C (0000ms, 0657ms total)
T5D8C 055:211 JLINK_ReadReg(XPSR)  returns 0xA1000000 (0000ms, 0657ms total)
T5D8C 055:211 JLINK_ReadReg(MSP)  returns 0x200098C0 (0000ms, 0657ms total)
T5D8C 055:211 JLINK_ReadReg(PSP)  returns 0x20000800 (0000ms, 0657ms total)
T5D8C 055:211 JLINK_ReadReg(CFBP)  returns 0x00000000 (0000ms, 0657ms total)
T5DF0 055:211 JLINK_ReadMemU32(0xE0001004, 0x0001 Items, ...) - Data: 50 07 F2 06  returns 0x01 (0000ms, 0657ms total)
T5DF0 055:212 JLINK_ReadMem (0x20000024, 0x0004 Bytes, ...) -- Read from C cache (4 bytes @ 0x20000024) - Data: 00 00 00 00  returns 0x00 (0000ms, 0657ms total)
T5DF0 055:212 JLINK_ReadMem (0x200000D0, 0x0004 Bytes, ...) -- Read from C cache (4 bytes @ 0x200000D0) - Data: 00 00 00 00  returns 0x00 (0000ms, 0657ms total)
T5DF0 055:212 JLINK_ReadMem (0x200000D4, 0x0004 Bytes, ...) -- Read from C cache (4 bytes @ 0x200000D4) - Data: 00 00 00 00  returns 0x00 (0000ms, 0657ms total)
T5DF0 055:212 JLINK_ReadMem (0x200000E0, 0x0004 Bytes, ...) -- Read from C cache (4 bytes @ 0x200000E0) - Data: 00 00 00 00  returns 0x00 (0000ms, 0657ms total)
T5DF0 055:212 JLINK_ReadMem (0x200000E4, 0x0004 Bytes, ...) -- Read from C cache (4 bytes @ 0x200000E4) - Data: 00 00 00 00  returns 0x00 (0000ms, 0657ms total)
T5DF0 055:212 JLINK_ReadMem (0x200000E8, 0x0004 Bytes, ...) -- Read from C cache (4 bytes @ 0x200000E8) - Data: 00 00 00 00  returns 0x00 (0000ms, 0657ms total)
T5DF0 055:212 JLINK_ReadMem (0x200000EC, 0x0004 Bytes, ...) -- Read from C cache (4 bytes @ 0x200000EC) - Data: 00 00 00 00  returns 0x00 (0000ms, 0657ms total)
T5DF0 055:212 JLINK_ReadMem (0x200000F0, 0x0004 Bytes, ...) -- Read from C cache (4 bytes @ 0x200000F0) - Data: 00 00 00 00  returns 0x00 (0000ms, 0657ms total)
T5DF0 055:212 JLINK_ReadMem (0x200000F4, 0x0001 Bytes, ...) -- Read from C cache (1 bytes @ 0x200000F4) - Data: 00  returns 0x00 (0000ms, 0657ms total)
T5DF0 055:212 JLINK_ReadMem (0x200000F5, 0x0006 Bytes, ...) -- Read from C cache (6 bytes @ 0x200000F5) - Data: 00 00 00 00 00 00  returns 0x00 (0000ms, 0657ms total)
T5DF0 055:212 JLINK_ReadMem (0x200000FC, 0x0002 Bytes, ...) -- Read from C cache (2 bytes @ 0x200000FC) - Data: 00 00  returns 0x00 (0000ms, 0657ms total)
T5DF0 055:212 JLINK_ReadMem (0x200000FE, 0x0001 Bytes, ...) -- Read from C cache (1 bytes @ 0x200000FE) - Data: 00  returns 0x00 (0000ms, 0657ms total)
T5DF0 055:212 JLINK_ReadMem (0x200000FF, 0x0002 Bytes, ...) -- Read from C cache (2 bytes @ 0x200000FF) - Data: 00 00  returns 0x00 (0000ms, 0657ms total)
T5DF0 055:212 JLINK_ReadMem (0x20000101, 0x0001 Bytes, ...) -- Read from C cache (1 bytes @ 0x20000101) - Data: 00  returns 0x00 (0000ms, 0657ms total)
T5DF0 055:213 JLINK_ReadMem (0x08000F1C, 0x003C Bytes, ...) -- Read from C cache (60 bytes @ 0x08000F1C) - Data: 88 B0 D0 E9 00 10 CD E9 03 10 02 F0 D1 FB 02 F0 ...  returns 0x00 (0000ms, 0657ms total)
T5D8C 055:632 JLINK_Step() -- Read from C cache (2 bytes @ 0x08000F1C) -- Simulated  returns 0x00 (0001ms, 0658ms total)
T5D8C 055:633 JLINK_ReadReg(R15 (PC))  returns 0x08000F1E (0000ms, 0658ms total)
T5D8C 055:633 JLINK_ReadReg(XPSR)  returns 0xA1000000 (0000ms, 0658ms total)
T5D8C 055:633 JLINK_ReadReg(R0)  returns 0x08000F68 (0000ms, 0658ms total)
T5D8C 055:633 JLINK_ReadReg(R1)  returns 0x00000010 (0000ms, 0658ms total)
T5D8C 055:633 JLINK_ReadReg(R2)  returns 0x00000002 (0000ms, 0658ms total)
T5D8C 055:633 JLINK_ReadReg(R3)  returns 0x20000028 (0000ms, 0658ms total)
T5D8C 055:633 JLINK_ReadReg(R4)  returns 0x00000000 (0000ms, 0658ms total)
T5D8C 055:633 JLINK_ReadReg(R5)  returns 0x20009284 (0000ms, 0658ms total)
T5D8C 055:633 JLINK_ReadReg(R6)  returns 0x00000000 (0000ms, 0658ms total)
T5D8C 055:633 JLINK_ReadReg(R7)  returns 0x00000000 (0000ms, 0658ms total)
T5D8C 055:633 JLINK_ReadReg(R8)  returns 0x00000000 (0000ms, 0658ms total)
T5D8C 055:633 JLINK_ReadReg(R9)  returns 0x20000160 (0000ms, 0658ms total)
T5D8C 055:633 JLINK_ReadReg(R10)  returns 0x08005EE0 (0000ms, 0658ms total)
T5D8C 055:633 JLINK_ReadReg(R11)  returns 0x00000000 (0000ms, 0658ms total)
T5D8C 055:633 JLINK_ReadReg(R12)  returns 0x0000000F (0000ms, 0658ms total)
T5D8C 055:633 JLINK_ReadReg(R13 (SP))  returns 0x200098A0 (0000ms, 0658ms total)
T5D8C 055:633 JLINK_ReadReg(R14)  returns 0x08003659 (0000ms, 0658ms total)
T5D8C 055:633 JLINK_ReadReg(R15 (PC))  returns 0x08000F1E (0000ms, 0658ms total)
T5D8C 055:633 JLINK_ReadReg(XPSR)  returns 0xA1000000 (0000ms, 0658ms total)
T5D8C 055:633 JLINK_ReadReg(MSP)  returns 0x200098A0 (0000ms, 0658ms total)
T5D8C 055:633 JLINK_ReadReg(PSP)  returns 0x20000800 (0000ms, 0658ms total)
T5D8C 055:633 JLINK_ReadReg(CFBP)  returns 0x00000000 (0000ms, 0658ms total)
T5DF0 055:633 JLINK_ReadMemU32(0xE0001004, 0x0001 Items, ...) - Data: 50 07 F2 06  returns 0x01 (0000ms, 0658ms total)
T5DF0 055:633 JLINK_ReadMem (0x20000024, 0x0004 Bytes, ...) -- Read from C cache (4 bytes @ 0x20000024) - Data: 00 00 00 00  returns 0x00 (0001ms, 0659ms total)
T5DF0 055:634 JLINK_ReadMem (0x200000D0, 0x0004 Bytes, ...) -- Read from C cache (4 bytes @ 0x200000D0) - Data: 00 00 00 00  returns 0x00 (0000ms, 0659ms total)
T5DF0 055:634 JLINK_ReadMem (0x200000D4, 0x0004 Bytes, ...) -- Read from C cache (4 bytes @ 0x200000D4) - Data: 00 00 00 00  returns 0x00 (0000ms, 0659ms total)
T5DF0 055:634 JLINK_ReadMem (0x200000E0, 0x0004 Bytes, ...) -- Read from C cache (4 bytes @ 0x200000E0) - Data: 00 00 00 00  returns 0x00 (0000ms, 0659ms total)
T5DF0 055:634 JLINK_ReadMem (0x200000E4, 0x0004 Bytes, ...) -- Read from C cache (4 bytes @ 0x200000E4) - Data: 00 00 00 00  returns 0x00 (0000ms, 0659ms total)
T5DF0 055:634 JLINK_ReadMem (0x200000E8, 0x0004 Bytes, ...) -- Read from C cache (4 bytes @ 0x200000E8) - Data: 00 00 00 00  returns 0x00 (0000ms, 0659ms total)
T5DF0 055:634 JLINK_ReadMem (0x200000EC, 0x0004 Bytes, ...) -- Read from C cache (4 bytes @ 0x200000EC) - Data: 00 00 00 00  returns 0x00 (0000ms, 0659ms total)
T5DF0 055:634 JLINK_ReadMem (0x200000F0, 0x0004 Bytes, ...) -- Read from C cache (4 bytes @ 0x200000F0) - Data: 00 00 00 00  returns 0x00 (0000ms, 0659ms total)
T5DF0 055:634 JLINK_ReadMem (0x200000F4, 0x0001 Bytes, ...) -- Read from C cache (1 bytes @ 0x200000F4) - Data: 00  returns 0x00 (0000ms, 0659ms total)
